<Qucs Dataset 0.0.15>
<indep x 10>
  +1.00000000000e+03
  +6.55555555556e+03
  +1.21111111111e+04
  +1.76666666667e+04
  +2.32222222222e+04
  +2.87777777778e+04
  +3.43333333333e+04
  +3.98888888889e+04
  +4.54444444444e+04
  +5.10000000000e+04
</indep>
<dep V1.I x>
  +0.00000000000e+00
  +0.00000000000e+00
  +0.00000000000e+00
  +0.00000000000e+00
  +0.00000000000e+00
  +0.00000000000e+00
  +0.00000000000e+00
  +0.00000000000e+00
  +0.00000000000e+00
  +0.00000000000e+00
</dep>
<dep _net0.V x>
  +3.60000000000e+01
  +3.60000000000e+01
  +3.60000000000e+01
  +3.60000000000e+01
  +3.60000000000e+01
  +3.60000000000e+01
  +3.60000000000e+01
  +3.60000000000e+01
  +3.60000000000e+01
  +3.60000000000e+01
</dep>
<dep _net1.V x>
  +0.00000000000e+00
  +0.00000000000e+00
  +0.00000000000e+00
  +0.00000000000e+00
  +0.00000000000e+00
  +0.00000000000e+00
  +0.00000000000e+00
  +0.00000000000e+00
  +0.00000000000e+00
  +0.00000000000e+00
</dep>
